[17:12:14.073]发→◇01 06 00 04 00 11 08 07 □
[17:12:14.079]收←◆01 06 00 04 00 11 08 07 
[17:12:15.357]发→◇01 06 00 04 16 40 C7 9B □
[17:12:15.363]收←◆01 06 00 04 16 40 C7 9B 
[17:12:16.510]发→◇01 03 00 04 00 01 C5 CB □
[17:12:16.515]收←◆01 03 02 16 40 B7 D4 
[17:12:19.629]发→◇01 06 00 04 00 00 C8 0B □
[17:12:19.635]收←◆01 06 00 04 00 00 C8 0B 
[17:12:20.471]发→◇01 06 00 04 01 11 09 97 □
[17:12:20.477]收←◆01 06 00 04 01 11 09 97 
[17:12:21.759]发→◇01 06 00 04 06 40 CA 5B □
[17:12:21.766]收←◆01 06 00 04 06 40 CA 5B 
[17:12:22.665]发→◇01 06 00 04 16 40 C7 9B □
[17:12:22.672]收←◆01 06 00 04 16 40 C7 9B 
[17:12:25.281]发→◇01 06 00 04 00 11 08 07 □
[17:12:25.287]收←◆01 06 00 04 00 11 08 07 